
T3B18 000:542 SEGGER J-Link V4.90 Log File (0001ms, 0314ms total)
T3B18 000:542 DLL Compiled: Jul 28 2014 10:35:20 (0001ms, 0314ms total)
T3B18 000:542 Logging started @ 2017-10-06 17:44 (0001ms, 0314ms total)
T3B18 000:543 JLINK_SetWarnOutHandler(...) (0001ms, 0315ms total)
T3B18 000:544 JLINK_OpenEx(...)
Firmware: J-Link OB-STM32F072-CortexM compiled Mar  8 2020 11:15:54
Hardware: V1.00
Feature(s): GDB, RDI, FlashBP, FlashDL, JFlash, RDDI  returns O.K. (0281ms, 0596ms total)
T3B18 000:825 JLINK_SetErrorOutHandler(...) (0000ms, 0596ms total)
T3B18 000:825 JLINK_ExecCommand("ProjectFile = "D:\Desktop\Prov\MDK-ARM\JLinkSettings.ini"", ...)Device "UNSPECIFIED" selected (0 KB flash, 0 KB RAM).  returns 0x00 (0006ms, 0602ms total)
T3B18 000:841 JLINK_ExecCommand("Device = STM32F405RGTx", ...)Device "UNSPECIFIED" selected (0 KB flash, 0 KB RAM).  returns 0x00 (0005ms, 0608ms total)
T3B18 000:847 JLINK_ExecCommand("DisableConnectionTimeout", ...)  returns 0x01 (0000ms, 0608ms total)
T3B18 000:847 JLINK_GetHardwareVersion()  returns 0x2710 (0000ms, 0608ms total)
T3B18 000:847 JLINK_GetDLLVersion()  returns 49000 (0000ms, 0608ms total)
T3B18 000:848 JLINK_GetFirmwareString(...) (0000ms, 0608ms total)
T3B18 000:872 JLINK_GetDLLVersion()  returns 49000 (0000ms, 0608ms total)
T3B18 000:872 JLINK_GetCompileDateTime() (0001ms, 0609ms total)
T3B18 000:880 JLINK_GetFirmwareString(...) (0000ms, 0609ms total)
T3B18 000:888 JLINK_GetHardwareVersion()  returns 0x2710 (0000ms, 0609ms total)
T3B18 000:910 JLINK_TIF_Select(JLINKARM_TIF_SWD)  returns 0x00 (0003ms, 0612ms total)
T3B18 000:913 JLINK_SetSpeed(20000) (0001ms, 0613ms total)
T3B18 000:914 JLINK_GetId() >0x108 TIF>Found SWD-DP with ID 0x2BA01477 >0x0D TIF> >0x21 TIF> >0x0D TIF> >0x28 TIF> >0x0D TIF> >0x28 TIF> >0x0D TIF> >0x21 TIF> >0x0D TIF> >0x28 TIF> >0x0D TIF> >0x21 TIF> >0x0D TIF> >0x21 TIF> >0x0D TIF> >0x21 TIF> >0x0D TIF> >0x21 TIF> >0x0D TIF> >0x28 TIF> >0x0D TIF> >0x28 TIF> >0x0D TIF> >0x21 TIF> >0x0D TIF> >0x28 TIF> >0x0D TIF> >0x28 TIF> >0x0D TIF> >0x28 TIF> >0x0D TIF> >0x21 TIF> >0x0D TIF> >0x21 TIF> >0x0D TIF> >0x28 TIF> >0x0D TIF> >0x21 TIF> >0x0D TIF>
 >0x21 TIF>Found Cortex-M4 r0p1, Little endian. -- CPU_WriteMem(4 bytes @ 0xE0002000) -- CPU_ReadMem(4 bytes @ 0xE000EDF0) -- CPU_ReadMem(4 bytes @ 0xE0002000)FPUnit: 6 code (BP) slots and 2 literal slots -- CPU_ReadMem(4 bytes @ 0xE000EDFC) -- CPU_ReadMem(4 bytes @ 0xE0001000) -- CPU_WriteMem(4 bytes @ 0xE0001000) -- CPU_ReadMem(4 bytes @ 0xE00FF010)TPIU fitted. -- CPU_ReadMem(4 bytes @ 0xE00FF014)ETM fitted. -- CPU_ReadMem(4 bytes @ 0xE00FF018) >0x0D TIF> >0x21 TIF>  returns 0x2BA01477
 (0089ms, 0702ms total)
T3B18 001:003 JLINK_GetDLLVersion()  returns 49000 (0000ms, 0702ms total)
T3B18 001:003 JLINK_CORE_GetFound()  returns 0xE0000FF (0001ms, 0703ms total)
T3B18 001:010 JLINK_ReadMem (0xE00FF000, 0x0020 Bytes, ...) -- CPU is running -- CPU_ReadMem(32 bytes @ 0xE00FF000) - Data: 03 F0 F0 FF 03 20 F0 FF 03 30 F0 FF 03 10 F0 FF ...  returns 0x00 (0002ms, 0705ms total)
T3B18 001:012 JLINK_ReadMem (0xE000EFF0, 0x0010 Bytes, ...) -- CPU is running -- CPU_ReadMem(16 bytes @ 0xE000EFF0) - Data: 0D 00 00 00 E0 00 00 00 05 00 00 00 B1 00 00 00  returns 0x00 (0002ms, 0707ms total)
T3B18 001:014 JLINK_ReadMem (0xE000EFD0, 0x0020 Bytes, ...) -- CPU is running -- CPU_ReadMem(32 bytes @ 0xE000EFD0) - Data: 04 00 00 00 00 00 00 00 00 00 00 00 00 00 00 00 ...  returns 0x00 (0002ms, 0709ms total)
T3B18 001:016 JLINK_ReadMem (0xE0001FF0, 0x0010 Bytes, ...) -- CPU is running -- CPU_ReadMem(16 bytes @ 0xE0001FF0) - Data: 0D 00 00 00 E0 00 00 00 05 00 00 00 B1 00 00 00  returns 0x00 (0002ms, 0711ms total)
T3B18 001:018 JLINK_ReadMem (0xE0001FD0, 0x0020 Bytes, ...) -- CPU is running -- CPU_ReadMem(32 bytes @ 0xE0001FD0) - Data: 04 00 00 00 00 00 00 00 00 00 00 00 00 00 00 00 ...  returns 0x00 (0002ms, 0713ms total)
T3B18 001:020 JLINK_ReadMem (0xE0002FF0, 0x0010 Bytes, ...) -- CPU is running -- CPU_ReadMem(16 bytes @ 0xE0002FF0) - Data: 0D 00 00 00 E0 00 00 00 05 00 00 00 B1 00 00 00  returns 0x00 (0001ms, 0714ms total)
T3B18 001:021 JLINK_ReadMem (0xE0002FD0, 0x0020 Bytes, ...) -- CPU is running -- CPU_ReadMem(32 bytes @ 0xE0002FD0) - Data: 04 00 00 00 00 00 00 00 00 00 00 00 00 00 00 00 ...  returns 0x00 (0002ms, 0716ms total)
T3B18 001:023 JLINK_ReadMem (0xE0000FF0, 0x0010 Bytes, ...) -- CPU is running -- CPU_ReadMem(16 bytes @ 0xE0000FF0) - Data: 0D 00 00 00 E0 00 00 00 05 00 00 00 B1 00 00 00  returns 0x00 (0002ms, 0718ms total)
T3B18 001:025 JLINK_ReadMem (0xE0000FD0, 0x0020 Bytes, ...) -- CPU is running -- CPU_ReadMem(32 bytes @ 0xE0000FD0) - Data: 04 00 00 00 00 00 00 00 00 00 00 00 00 00 00 00 ...  returns 0x00 (0001ms, 0719ms total)
T3B18 001:026 JLINK_ReadMem (0xE0040FF0, 0x0010 Bytes, ...) -- CPU is running -- CPU_ReadMem(16 bytes @ 0xE0040FF0) - Data: 0D 00 00 00 90 00 00 00 05 00 00 00 B1 00 00 00  returns 0x00 (0002ms, 0721ms total)
T3B18 001:028 JLINK_ReadMem (0xE0040FD0, 0x0020 Bytes, ...) -- CPU is running -- CPU_ReadMem(32 bytes @ 0xE0040FD0) - Data: 04 00 00 00 00 00 00 00 00 00 00 00 00 00 00 00 ...  returns 0x00 (0002ms, 0723ms total)
T3B18 001:030 JLINK_ReadMem (0xE0041FF0, 0x0010 Bytes, ...) -- CPU is running -- CPU_ReadMem(16 bytes @ 0xE0041FF0) - Data: 0D 00 00 00 90 00 00 00 05 00 00 00 B1 00 00 00  returns 0x00 (0002ms, 0725ms total)
T3B18 001:032 JLINK_ReadMem (0xE0041FD0, 0x0020 Bytes, ...) -- CPU is running -- CPU_ReadMem(32 bytes @ 0xE0041FD0) - Data: 04 00 00 00 00 00 00 00 00 00 00 00 00 00 00 00 ...  returns 0x00 (0002ms, 0727ms total)
T3B18 001:034 JLINK_ReadMemU32(0xE000EF40, 0x0001 Items, ...) -- CPU is running -- CPU_ReadMem(4 bytes @ 0xE000EF40) - Data: 21 00 11 10  returns 0x01 (0001ms, 0728ms total)
T3B18 001:035 JLINK_ReadMemU32(0xE000EF44, 0x0001 Items, ...) -- CPU is running -- CPU_ReadMem(4 bytes @ 0xE000EF44) - Data: 11 00 00 11  returns 0x01 (0002ms, 0730ms total)
T3B18 001:037 JLINK_ReadMemU32(0xE000ED00, 0x0001 Items, ...) -- CPU is running -- CPU_ReadMem(4 bytes @ 0xE000ED00) - Data: 41 C2 0F 41  returns 0x01 (0001ms, 0731ms total)
T3B18 001:038 JLINK_SetResetType(JLINKARM_RESET_TYPE_NORMAL)  returns JLINKARM_RESET_TYPE_NORMAL (0000ms, 0731ms total)
T3B18 001:039 JLINK_Reset() -- CPU is running -- CPU_WriteMem(4 bytes @ 0xE000EDF0) -- CPU is running -- CPU_WriteMem(4 bytes @ 0xE000EDFC) >0x35 TIF> -- CPU is running -- CPU_WriteMem(4 bytes @ 0xE000ED0C) -- CPU is running -- CPU_ReadMem(4 bytes @ 0xE000EDF0) -- CPU is running -- CPU_ReadMem(4 bytes @ 0xE000EDF0) -- CPU is running -- CPU_WriteMem(4 bytes @ 0xE000EDF0) -- CPU is running -- CPU_WriteMem(4 bytes @ 0xE000EDFC) -- CPU is running -- CPU_ReadMem(4 bytes @ 0xE000EDF0)
 -- CPU_WriteMem(4 bytes @ 0xE0002000) -- CPU_ReadMem(4 bytes @ 0xE000EDFC) -- CPU_ReadMem(4 bytes @ 0xE0001000) (0025ms, 0757ms total)
T3B18 001:064 JLINK_Halt()  returns 0x00 (0000ms, 0757ms total)
T3B18 001:064 JLINK_IsHalted()  returns TRUE (0001ms, 0758ms total)
T3B18 001:065 JLINK_ReadMemU32(0xE000EDF0, 0x0001 Items, ...) -- CPU_ReadMem(4 bytes @ 0xE000EDF0) - Data: 03 00 03 00  returns 0x01 (0001ms, 0758ms total)
T3B18 001:066 JLINK_WriteU32(0xE000EDF0, 0xA05F0003) -- CPU_WriteMem(4 bytes @ 0xE000EDF0)  returns 0x00 (0001ms, 0759ms total)
T3B18 001:067 JLINK_WriteU32(0xE000EDFC, 0x01000000) -- CPU_WriteMem(4 bytes @ 0xE000EDFC)  returns 0x00 (0002ms, 0761ms total)
T3B18 001:097 JLINK_GetHWStatus(...)  returns 0x00 (0001ms, 0762ms total)
T3B18 001:116 JLINK_GetNumBPUnits(Type = 0xFFFFFF00)  returns 0x06 (0001ms, 0763ms total)
T3B18 001:117 JLINK_GetNumBPUnits(Type = 0xF0)  returns 0x2000 (0000ms, 0763ms total)
T3B18 001:118 JLINK_GetNumWPUnits()  returns 0x04 (0000ms, 0764ms total)
T3B18 001:138 JLINK_GetSpeed()  returns 0x7D0 (0001ms, 0765ms total)
T3B18 001:154 JLINK_ReadMemU32(0xE000E004, 0x0001 Items, ...) -- CPU_ReadMem(4 bytes @ 0xE000E004) - Data: 02 00 00 00  returns 0x01 (0001ms, 0766ms total)
T3B18 001:155 JLINK_ReadMemU32(0xE000E004, 0x0001 Items, ...) -- CPU_ReadMem(4 bytes @ 0xE000E004) - Data: 02 00 00 00  returns 0x01 (0001ms, 0767ms total)
T3B18 001:156 JLINK_WriteMem(0xE0001000, 0x001C Bytes, ...) - Data: 01 00 00 00 00 00 00 00 00 00 00 00 00 00 00 00 ... -- CPU_WriteMem(28 bytes @ 0xE0001000)  returns 0x1C (0002ms, 0769ms total)
T3B18 001:158 JLINK_ReadMem (0xE0001000, 0x001C Bytes, ...) -- CPU_ReadMem(28 bytes @ 0xE0001000) - Data: 01 00 00 40 00 00 00 00 00 00 00 00 00 00 00 00 ...  returns 0x00 (0002ms, 0771ms total)
T3B18 001:160 JLINK_Halt()  returns 0x00 (0000ms, 0771ms total)
T3B18 001:160 JLINK_IsHalted()  returns TRUE (0000ms, 0771ms total)
T3B18 001:166 JLINK_WriteMem(0x20000000, 0x0180 Bytes, ...) - Data: 00 BE 0A E0 0D 78 2D 06 68 40 08 24 40 00 00 D3 ... -- CPU_WriteMem(384 bytes @ 0x20000000)  returns 0x180 (0006ms, 0777ms total)
T3B18 001:172 JLINK_WriteReg(R0, 0x08000000)  returns 0x00 (0000ms, 0777ms total)
T3B18 001:172 JLINK_WriteReg(R1, 0x00B71B00)  returns 0x00 (0000ms, 0777ms total)
T3B18 001:172 JLINK_WriteReg(R2, 0x00000001)  returns 0x00 (0001ms, 0778ms total)
T3B18 001:173 JLINK_WriteReg(R3, 0x00000000)  returns 0x00 (0000ms, 0778ms total)
T3B18 001:173 JLINK_WriteReg(R4, 0x00000000)  returns 0x00 (0000ms, 0778ms total)
T3B18 001:173 JLINK_WriteReg(R5, 0x00000000)  returns 0x00 (0001ms, 0779ms total)
T3B18 001:174 JLINK_WriteReg(R6, 0x00000000)  returns 0x00 (0000ms, 0779ms total)
T3B18 001:174 JLINK_WriteReg(R7, 0x00000000)  returns 0x00 (0000ms, 0779ms total)
T3B18 001:174 JLINK_WriteReg(R8, 0x00000000)  returns 0x00 (0001ms, 0780ms total)
T3B18 001:175 JLINK_WriteReg(R9, 0x2000017C)  returns 0x00 (0000ms, 0780ms total)
T3B18 001:175 JLINK_WriteReg(R10, 0x00000000)  returns 0x00 (0000ms, 0780ms total)
T3B18 001:175 JLINK_WriteReg(R11, 0x00000000)  returns 0x00 (0001ms, 0781ms total)
T3B18 001:176 JLINK_WriteReg(R12, 0x00000000)  returns 0x00 (0000ms, 0781ms total)
T3B18 001:176 JLINK_WriteReg(R13 (SP), 0x20001000)  returns 0x00 (0000ms, 0781ms total)
T3B18 001:176 JLINK_WriteReg(R14, 0x20000001)  returns 0x00 (0001ms, 0782ms total)
T3B18 001:177 JLINK_WriteReg(R15 (PC), 0x20000054)  returns 0x00 (0000ms, 0782ms total)
T3B18 001:177 JLINK_WriteReg(XPSR, 0x01000000)  returns 0x00 (0000ms, 0782ms total)
T3B18 001:177 JLINK_WriteReg(MSP, 0x20001000)  returns 0x00 (0001ms, 0783ms total)
T3B18 001:178 JLINK_WriteReg(PSP, 0x20001000)  returns 0x00 (0000ms, 0783ms total)
T3B18 001:178 JLINK_WriteReg(CFBP, 0x00000000)  returns 0x00 (0001ms, 0784ms total)
T3B18 001:179 JLINK_SetBPEx(Addr = 0x20000000, Type = 0xFFFFFFF2) -- CPU_ReadMem(4 bytes @ 0x20000000) -- CPU_WriteMem(4 bytes @ 0x20000000) -- CPU_ReadMem(4 bytes @ 0x20000000) -- CPU_WriteMem(4 bytes @ 0x20000000) -- CPU_ReadMem(2 bytes @ 0x20000000)  returns 0x00000001 (0006ms, 0790ms total)
T3B18 001:185 JLINK_Go() -- CPU_WriteMem(2 bytes @ 0x20000000) -- CPU_WriteMem(4 bytes @ 0xE0002008) -- CPU_WriteMem(4 bytes @ 0xE000200C) -- CPU_WriteMem(4 bytes @ 0xE0002010) -- CPU_WriteMem(4 bytes @ 0xE0002014) -- CPU_WriteMem(4 bytes @ 0xE0002018) -- CPU_WriteMem(4 bytes @ 0xE000201C) -- CPU_WriteMem(4 bytes @ 0xE0001004) (0012ms, 0802ms total)
T3B18 001:197 JLINK_IsHalted() -- CPU_ReadMem(2 bytes @ 0x20000000)  returns TRUE (0007ms, 0809ms total)
T3B18 001:204 JLINK_ReadReg(R15 (PC))  returns 0x20000000 (0000ms, 0802ms total)
T3B18 001:204 JLINK_ClrBPEx(BPHandle = 0x00000001)  returns 0x00 (0001ms, 0803ms total)
T3B18 001:205 JLINK_ReadReg(R0)  returns 0x00000000 (0000ms, 0803ms total)
T3B18 001:206 JLINK_WriteReg(R0, 0x08000000)  returns 0x00 (0000ms, 0803ms total)
T3B18 001:206 JLINK_WriteReg(R1, 0x00004000)  returns 0x00 (0001ms, 0804ms total)
T3B18 001:207 JLINK_WriteReg(R2, 0x000000FF)  returns 0x00 (0000ms, 0804ms total)
T3B18 001:207 JLINK_WriteReg(R3, 0x00000000)  returns 0x00 (0000ms, 0804ms total)
T3B18 001:207 JLINK_WriteReg(R4, 0x00000000)  returns 0x00 (0001ms, 0805ms total)
T3B18 001:208 JLINK_WriteReg(R5, 0x00000000)  returns 0x00 (0000ms, 0805ms total)
T3B18 001:208 JLINK_WriteReg(R6, 0x00000000)  returns 0x00 (0001ms, 0806ms total)
T3B18 001:209 JLINK_WriteReg(R7, 0x00000000)  returns 0x00 (0000ms, 0806ms total)
T3B18 001:209 JLINK_WriteReg(R8, 0x00000000)  returns 0x00 (0000ms, 0806ms total)
T3B18 001:209 JLINK_WriteReg(R9, 0x2000017C)  returns 0x00 (0001ms, 0807ms total)
T3B18 001:210 JLINK_WriteReg(R10, 0x00000000)  returns 0x00 (0000ms, 0807ms total)
T3B18 001:210 JLINK_WriteReg(R11, 0x00000000)  returns 0x00 (0000ms, 0807ms total)
T3B18 001:210 JLINK_WriteReg(R12, 0x00000000)  returns 0x00 (0000ms, 0807ms total)
T3B18 001:211 JLINK_WriteReg(R13 (SP), 0x20001000)  returns 0x00 (0000ms, 0808ms total)
T3B18 001:211 JLINK_WriteReg(R14, 0x20000001)  returns 0x00 (0000ms, 0808ms total)
T3B18 001:211 JLINK_WriteReg(R15 (PC), 0x20000020)  returns 0x00 (0000ms, 0808ms total)
T3B18 001:212 JLINK_WriteReg(XPSR, 0x01000000)  returns 0x00 (0000ms, 0808ms total)
T3B18 001:212 JLINK_WriteReg(MSP, 0x20001000)  returns 0x00 (0000ms, 0808ms total)
T3B18 001:212 JLINK_WriteReg(PSP, 0x20001000)  returns 0x00 (0000ms, 0808ms total)
T3B18 001:212 JLINK_WriteReg(CFBP, 0x00000000)  returns 0x00 (0001ms, 0809ms total)
T3B18 001:213 JLINK_SetBPEx(Addr = 0x20000000, Type = 0xFFFFFFF2)  returns 0x00000002 (0000ms, 0809ms total)
T3B18 001:213 JLINK_Go() (0003ms, 0812ms total)
T3B18 001:217 JLINK_IsHalted() -- CPU_ReadMem(2 bytes @ 0x20000000)  returns TRUE (0006ms, 0819ms total)
T3B18 001:223 JLINK_ReadReg(R15 (PC))  returns 0x20000000 (0001ms, 0814ms total)
T3B18 001:224 JLINK_ClrBPEx(BPHandle = 0x00000002)  returns 0x00 (0000ms, 0814ms total)
T3B18 001:224 JLINK_ReadReg(R0)  returns 0x00000001 (0000ms, 0814ms total)
T3B18 001:224 JLINK_WriteReg(R0, 0x08000000)  returns 0x00 (0001ms, 0815ms total)
T3B18 001:225 JLINK_WriteReg(R1, 0x00004000)  returns 0x00 (0000ms, 0815ms total)
T3B18 001:225 JLINK_WriteReg(R2, 0x000000FF)  returns 0x00 (0000ms, 0815ms total)
T3B18 001:225 JLINK_WriteReg(R3, 0x00000000)  returns 0x00 (0001ms, 0816ms total)
T3B18 001:226 JLINK_WriteReg(R4, 0x00000000)  returns 0x00 (0000ms, 0816ms total)
T3B18 001:226 JLINK_WriteReg(R5, 0x00000000)  returns 0x00 (0000ms, 0816ms total)
T3B18 001:226 JLINK_WriteReg(R6, 0x00000000)  returns 0x00 (0001ms, 0817ms total)
T3B18 001:227 JLINK_WriteReg(R7, 0x00000000)  returns 0x00 (0000ms, 0817ms total)
T3B18 001:227 JLINK_WriteReg(R8, 0x00000000)  returns 0x00 (0000ms, 0817ms total)
T3B18 001:227 JLINK_WriteReg(R9, 0x2000017C)  returns 0x00 (0001ms, 0818ms total)
T3B18 001:228 JLINK_WriteReg(R10, 0x00000000)  returns 0x00 (0000ms, 0818ms total)
T3B18 001:228 JLINK_WriteReg(R11, 0x00000000)  returns 0x00 (0000ms, 0818ms total)
T3B18 001:228 JLINK_WriteReg(R12, 0x00000000)  returns 0x00 (0000ms, 0818ms total)
T3B18 001:229 JLINK_WriteReg(R13 (SP), 0x20001000)  returns 0x00 (0000ms, 0819ms total)
T3B18 001:229 JLINK_WriteReg(R14, 0x20000001)  returns 0x00 (0000ms, 0819ms total)
T3B18 001:229 JLINK_WriteReg(R15 (PC), 0x200000BC)  returns 0x00 (0001ms, 0820ms total)
T3B18 001:230 JLINK_WriteReg(XPSR, 0x01000000)  returns 0x00 (0000ms, 0820ms total)
T3B18 001:230 JLINK_WriteReg(MSP, 0x20001000)  returns 0x00 (0000ms, 0820ms total)
T3B18 001:230 JLINK_WriteReg(PSP, 0x20001000)  returns 0x00 (0000ms, 0820ms total)
T3B18 001:231 JLINK_WriteReg(CFBP, 0x00000000)  returns 0x00 (0000ms, 0821ms total)
T3B18 001:231 JLINK_SetBPEx(Addr = 0x20000000, Type = 0xFFFFFFF2)  returns 0x00000003 (0000ms, 0821ms total)
T3B18 001:231 JLINK_Go() (0004ms, 0825ms total)
T3B18 001:235 JLINK_IsHalted()  returns FALSE (0001ms, 0826ms total)
T3B18 001:442 JLINK_IsHalted()  returns FALSE (0002ms, 0827ms total)
T3B18 001:624 JLINK_IsHalted() -- CPU_ReadMem(2 bytes @ 0x20000000)  returns TRUE (0007ms, 0832ms total)
T3B18 001:631 JLINK_ReadReg(R15 (PC))  returns 0x20000000 (0000ms, 0825ms total)
T3B18 001:631 JLINK_ClrBPEx(BPHandle = 0x00000003)  returns 0x00 (0000ms, 0825ms total)
T3B18 001:631 JLINK_ReadReg(R0)  returns 0x00000000 (0001ms, 0826ms total)
T3B18 001:633 JLINK_WriteReg(R0, 0x08004000)  returns 0x00 (0000ms, 0826ms total)
T3B18 001:633 JLINK_WriteReg(R1, 0x00004000)  returns 0x00 (0000ms, 0826ms total)
T3B18 001:633 JLINK_WriteReg(R2, 0x000000FF)  returns 0x00 (0001ms, 0827ms total)
T3B18 001:634 JLINK_WriteReg(R3, 0x00000000)  returns 0x00 (0000ms, 0827ms total)
T3B18 001:634 JLINK_WriteReg(R4, 0x00000000)  returns 0x00 (0000ms, 0827ms total)
T3B18 001:634 JLINK_WriteReg(R5, 0x00000000)  returns 0x00 (0001ms, 0828ms total)
T3B18 001:635 JLINK_WriteReg(R6, 0x00000000)  returns 0x00 (0000ms, 0828ms total)
T3B18 001:635 JLINK_WriteReg(R7, 0x00000000)  returns 0x00 (0000ms, 0828ms total)
T3B18 001:635 JLINK_WriteReg(R8, 0x00000000)  returns 0x00 (0001ms, 0829ms total)
T3B18 001:636 JLINK_WriteReg(R9, 0x2000017C)  returns 0x00 (0000ms, 0829ms total)
T3B18 001:636 JLINK_WriteReg(R10, 0x00000000)  returns 0x00 (0000ms, 0829ms total)
T3B18 001:636 JLINK_WriteReg(R11, 0x00000000)  returns 0x00 (0001ms, 0830ms total)
T3B18 001:637 JLINK_WriteReg(R12, 0x00000000)  returns 0x00 (0000ms, 0830ms total)
T3B18 001:637 JLINK_WriteReg(R13 (SP), 0x20001000)  returns 0x00 (0000ms, 0830ms total)
T3B18 001:637 JLINK_WriteReg(R14, 0x20000001)  returns 0x00 (0001ms, 0831ms total)
T3B18 001:638 JLINK_WriteReg(R15 (PC), 0x20000020)  returns 0x00 (0000ms, 0831ms total)
T3B18 001:638 JLINK_WriteReg(XPSR, 0x01000000)  returns 0x00 (0000ms, 0831ms total)
T3B18 001:638 JLINK_WriteReg(MSP, 0x20001000)  returns 0x00 (0001ms, 0832ms total)
T3B18 001:639 JLINK_WriteReg(PSP, 0x20001000)  returns 0x00 (0000ms, 0832ms total)
T3B18 001:639 JLINK_WriteReg(CFBP, 0x00000000)  returns 0x00 (0000ms, 0832ms total)
T3B18 001:639 JLINK_SetBPEx(Addr = 0x20000000, Type = 0xFFFFFFF2)  returns 0x00000004 (0001ms, 0833ms total)
T3B18 001:640 JLINK_Go() (0003ms, 0836ms total)
T3B18 001:643 JLINK_IsHalted() -- CPU_ReadMem(2 bytes @ 0x20000000)  returns TRUE (0007ms, 0843ms total)
T3B18 001:650 JLINK_ReadReg(R15 (PC))  returns 0x20000000 (0000ms, 0836ms total)
T3B18 001:650 JLINK_ClrBPEx(BPHandle = 0x00000004)  returns 0x00 (0001ms, 0837ms total)
T3B18 001:651 JLINK_ReadReg(R0)  returns 0x00000001 (0000ms, 0837ms total)
T3B18 001:651 JLINK_WriteReg(R0, 0x08004000)  returns 0x00 (0000ms, 0837ms total)
T3B18 001:651 JLINK_WriteReg(R1, 0x00004000)  returns 0x00 (0001ms, 0838ms total)
T3B18 001:652 JLINK_WriteReg(R2, 0x000000FF)  returns 0x00 (0000ms, 0838ms total)
T3B18 001:652 JLINK_WriteReg(R3, 0x00000000)  returns 0x00 (0000ms, 0838ms total)
T3B18 001:652 JLINK_WriteReg(R4, 0x00000000)  returns 0x00 (0001ms, 0839ms total)
T3B18 001:653 JLINK_WriteReg(R5, 0x00000000)  returns 0x00 (0000ms, 0839ms total)
T3B18 001:653 JLINK_WriteReg(R6, 0x00000000)  returns 0x00 (0000ms, 0839ms total)
T3B18 001:653 JLINK_WriteReg(R7, 0x00000000)  returns 0x00 (0001ms, 0840ms total)
T3B18 001:654 JLINK_WriteReg(R8, 0x00000000)  returns 0x00 (0000ms, 0840ms total)
T3B18 001:654 JLINK_WriteReg(R9, 0x2000017C)  returns 0x00 (0000ms, 0840ms total)
T3B18 001:654 JLINK_WriteReg(R10, 0x00000000)  returns 0x00 (0001ms, 0841ms total)
T3B18 001:655 JLINK_WriteReg(R11, 0x00000000)  returns 0x00 (0000ms, 0841ms total)
T3B18 001:655 JLINK_WriteReg(R12, 0x00000000)  returns 0x00 (0000ms, 0841ms total)
T3B18 001:655 JLINK_WriteReg(R13 (SP), 0x20001000)  returns 0x00 (0001ms, 0842ms total)
T3B18 001:656 JLINK_WriteReg(R14, 0x20000001)  returns 0x00 (0000ms, 0842ms total)
T3B18 001:656 JLINK_WriteReg(R15 (PC), 0x200000BC)  returns 0x00 (0000ms, 0842ms total)
T3B18 001:656 JLINK_WriteReg(XPSR, 0x01000000)  returns 0x00 (0000ms, 0842ms total)
T3B18 001:657 JLINK_WriteReg(MSP, 0x20001000)  returns 0x00 (0000ms, 0843ms total)
T3B18 001:657 JLINK_WriteReg(PSP, 0x20001000)  returns 0x00 (0000ms, 0843ms total)
T3B18 001:657 JLINK_WriteReg(CFBP, 0x00000000)  returns 0x00 (0001ms, 0844ms total)
T3B18 001:658 JLINK_SetBPEx(Addr = 0x20000000, Type = 0xFFFFFFF2)  returns 0x00000005 (0000ms, 0844ms total)
T3B18 001:658 JLINK_Go() (0003ms, 0847ms total)
T3B18 001:661 JLINK_IsHalted()  returns FALSE (0002ms, 0849ms total)
T3B18 001:836 JLINK_IsHalted()  returns FALSE (0001ms, 0848ms total)
T3B18 002:011 JLINK_IsHalted()  returns FALSE (0002ms, 0849ms total)
T3B18 002:186 JLINK_IsHalted() -- CPU_ReadMem(2 bytes @ 0x20000000)  returns TRUE (0006ms, 0853ms total)
T3B18 002:192 JLINK_ReadReg(R15 (PC))  returns 0x20000000 (0001ms, 0848ms total)
T3B18 002:193 JLINK_ClrBPEx(BPHandle = 0x00000005)  returns 0x00 (0000ms, 0848ms total)
T3B18 002:193 JLINK_ReadReg(R0)  returns 0x00000000 (0000ms, 0848ms total)
T3B18 002:194 JLINK_WriteReg(R0, 0x08008000)  returns 0x00 (0001ms, 0849ms total)
T3B18 002:195 JLINK_WriteReg(R1, 0x00004000)  returns 0x00 (0000ms, 0849ms total)
T3B18 002:195 JLINK_WriteReg(R2, 0x000000FF)  returns 0x00 (0000ms, 0849ms total)
T3B18 002:195 JLINK_WriteReg(R3, 0x00000000)  returns 0x00 (0001ms, 0850ms total)
T3B18 002:196 JLINK_WriteReg(R4, 0x00000000)  returns 0x00 (0000ms, 0850ms total)
T3B18 002:196 JLINK_WriteReg(R5, 0x00000000)  returns 0x00 (0000ms, 0850ms total)
T3B18 002:196 JLINK_WriteReg(R6, 0x00000000)  returns 0x00 (0001ms, 0851ms total)
T3B18 002:197 JLINK_WriteReg(R7, 0x00000000)  returns 0x00 (0000ms, 0851ms total)
T3B18 002:197 JLINK_WriteReg(R8, 0x00000000)  returns 0x00 (0000ms, 0851ms total)
T3B18 002:197 JLINK_WriteReg(R9, 0x2000017C)  returns 0x00 (0000ms, 0851ms total)
T3B18 002:198 JLINK_WriteReg(R10, 0x00000000)  returns 0x00 (0000ms, 0852ms total)
T3B18 002:198 JLINK_WriteReg(R11, 0x00000000)  returns 0x00 (0000ms, 0852ms total)
T3B18 002:198 JLINK_WriteReg(R12, 0x00000000)  returns 0x00 (0000ms, 0852ms total)
T3B18 002:199 JLINK_WriteReg(R13 (SP), 0x20001000)  returns 0x00 (0000ms, 0853ms total)
T3B18 002:199 JLINK_WriteReg(R14, 0x20000001)  returns 0x00 (0000ms, 0853ms total)
T3B18 002:199 JLINK_WriteReg(R15 (PC), 0x20000020)  returns 0x00 (0001ms, 0854ms total)
T3B18 002:200 JLINK_WriteReg(XPSR, 0x01000000)  returns 0x00 (0000ms, 0854ms total)
T3B18 002:200 JLINK_WriteReg(MSP, 0x20001000)  returns 0x00 (0000ms, 0854ms total)
T3B18 002:200 JLINK_WriteReg(PSP, 0x20001000)  returns 0x00 (0001ms, 0855ms total)
T3B18 002:201 JLINK_WriteReg(CFBP, 0x00000000)  returns 0x00 (0000ms, 0855ms total)
T3B18 002:201 JLINK_SetBPEx(Addr = 0x20000000, Type = 0xFFFFFFF2)  returns 0x00000006 (0001ms, 0856ms total)
T3B18 002:202 JLINK_Go() (0003ms, 0859ms total)
T3B18 002:205 JLINK_IsHalted() -- CPU_ReadMem(2 bytes @ 0x20000000)  returns TRUE (0007ms, 0866ms total)
T3B18 002:212 JLINK_ReadReg(R15 (PC))  returns 0x20000000 (0000ms, 0859ms total)
T3B18 002:212 JLINK_ClrBPEx(BPHandle = 0x00000006)  returns 0x00 (0001ms, 0860ms total)
T3B18 002:213 JLINK_ReadReg(R0)  returns 0x00000001 (0000ms, 0860ms total)
T3B18 002:213 JLINK_WriteReg(R0, 0x08008000)  returns 0x00 (0000ms, 0860ms total)
T3B18 002:213 JLINK_WriteReg(R1, 0x00004000)  returns 0x00 (0001ms, 0861ms total)
T3B18 002:214 JLINK_WriteReg(R2, 0x000000FF)  returns 0x00 (0000ms, 0861ms total)
T3B18 002:214 JLINK_WriteReg(R3, 0x00000000)  returns 0x00 (0000ms, 0861ms total)
T3B18 002:214 JLINK_WriteReg(R4, 0x00000000)  returns 0x00 (0000ms, 0861ms total)
T3B18 002:215 JLINK_WriteReg(R5, 0x00000000)  returns 0x00 (0000ms, 0862ms total)
T3B18 002:215 JLINK_WriteReg(R6, 0x00000000)  returns 0x00 (0000ms, 0862ms total)
T3B18 002:215 JLINK_WriteReg(R7, 0x00000000)  returns 0x00 (0000ms, 0862ms total)
T3B18 002:216 JLINK_WriteReg(R8, 0x00000000)  returns 0x00 (0000ms, 0863ms total)
T3B18 002:216 JLINK_WriteReg(R9, 0x2000017C)  returns 0x00 (0000ms, 0863ms total)
T3B18 002:216 JLINK_WriteReg(R10, 0x00000000)  returns 0x00 (0000ms, 0863ms total)
T3B18 002:216 JLINK_WriteReg(R11, 0x00000000)  returns 0x00 (0001ms, 0864ms total)
T3B18 002:217 JLINK_WriteReg(R12, 0x00000000)  returns 0x00 (0000ms, 0864ms total)
T3B18 002:217 JLINK_WriteReg(R13 (SP), 0x20001000)  returns 0x00 (0000ms, 0864ms total)
T3B18 002:217 JLINK_WriteReg(R14, 0x20000001)  returns 0x00 (0001ms, 0865ms total)
T3B18 002:218 JLINK_WriteReg(R15 (PC), 0x200000BC)  returns 0x00 (0000ms, 0865ms total)
T3B18 002:218 JLINK_WriteReg(XPSR, 0x01000000)  returns 0x00 (0000ms, 0865ms total)
T3B18 002:218 JLINK_WriteReg(MSP, 0x20001000)  returns 0x00 (0001ms, 0866ms total)
T3B18 002:219 JLINK_WriteReg(PSP, 0x20001000)  returns 0x00 (0000ms, 0866ms total)
T3B18 002:219 JLINK_WriteReg(CFBP, 0x00000000)  returns 0x00 (0000ms, 0866ms total)
T3B18 002:219 JLINK_SetBPEx(Addr = 0x20000000, Type = 0xFFFFFFF2)  returns 0x00000007 (0001ms, 0867ms total)
T3B18 002:220 JLINK_Go() (0003ms, 0870ms total)
T3B18 002:223 JLINK_IsHalted()  returns FALSE (0001ms, 0871ms total)
T3B18 002:398 JLINK_IsHalted()  returns FALSE (0001ms, 0871ms total)
T3B18 002:571 JLINK_IsHalted()  returns FALSE (0001ms, 0871ms total)
T3B18 002:745 JLINK_IsHalted() -- CPU_ReadMem(2 bytes @ 0x20000000)  returns TRUE (0007ms, 0877ms total)
T3B18 002:752 JLINK_ReadReg(R15 (PC))  returns 0x20000000 (0000ms, 0870ms total)
T3B18 002:752 JLINK_ClrBPEx(BPHandle = 0x00000007)  returns 0x00 (0000ms, 0870ms total)
T3B18 002:752 JLINK_ReadReg(R0)  returns 0x00000000 (0001ms, 0871ms total)
T3B18 002:753 JLINK_WriteReg(R0, 0x00000001)  returns 0x00 (0001ms, 0872ms total)
T3B18 002:754 JLINK_WriteReg(R1, 0x00004000)  returns 0x00 (0000ms, 0872ms total)
T3B18 002:754 JLINK_WriteReg(R2, 0x000000FF)  returns 0x00 (0000ms, 0872ms total)
T3B18 002:754 JLINK_WriteReg(R3, 0x00000000)  returns 0x00 (0001ms, 0873ms total)
T3B18 002:755 JLINK_WriteReg(R4, 0x00000000)  returns 0x00 (0000ms, 0873ms total)
T3B18 002:755 JLINK_WriteReg(R5, 0x00000000)  returns 0x00 (0000ms, 0873ms total)
T3B18 002:755 JLINK_WriteReg(R6, 0x00000000)  returns 0x00 (0001ms, 0874ms total)
T3B18 002:756 JLINK_WriteReg(R7, 0x00000000)  returns 0x00 (0000ms, 0874ms total)
T3B18 002:756 JLINK_WriteReg(R8, 0x00000000)  returns 0x00 (0000ms, 0874ms total)
T3B18 002:756 JLINK_WriteReg(R9, 0x2000017C)  returns 0x00 (0000ms, 0874ms total)
T3B18 002:757 JLINK_WriteReg(R10, 0x00000000)  returns 0x00 (0000ms, 0875ms total)
T3B18 002:757 JLINK_WriteReg(R11, 0x00000000)  returns 0x00 (0000ms, 0875ms total)
T3B18 002:757 JLINK_WriteReg(R12, 0x00000000)  returns 0x00 (0001ms, 0876ms total)
T3B18 002:758 JLINK_WriteReg(R13 (SP), 0x20001000)  returns 0x00 (0000ms, 0876ms total)
T3B18 002:758 JLINK_WriteReg(R14, 0x20000001)  returns 0x00 (0000ms, 0876ms total)
T3B18 002:758 JLINK_WriteReg(R15 (PC), 0x20000082)  returns 0x00 (0001ms, 0877ms total)
T3B18 002:759 JLINK_WriteReg(XPSR, 0x01000000)  returns 0x00 (0000ms, 0877ms total)
T3B18 002:759 JLINK_WriteReg(MSP, 0x20001000)  returns 0x00 (0000ms, 0877ms total)
T3B18 002:759 JLINK_WriteReg(PSP, 0x20001000)  returns 0x00 (0001ms, 0878ms total)
T3B18 002:760 JLINK_WriteReg(CFBP, 0x00000000)  returns 0x00 (0000ms, 0878ms total)
T3B18 002:760 JLINK_SetBPEx(Addr = 0x20000000, Type = 0xFFFFFFF2)  returns 0x00000008 (0000ms, 0878ms total)
T3B18 002:760 JLINK_Go() (0004ms, 0882ms total)
T3B18 002:764 JLINK_IsHalted() -- CPU_ReadMem(2 bytes @ 0x20000000)  returns TRUE (0007ms, 0889ms total)
T3B18 002:771 JLINK_ReadReg(R15 (PC))  returns 0x20000000 (0000ms, 0882ms total)
T3B18 002:771 JLINK_ClrBPEx(BPHandle = 0x00000008)  returns 0x00 (0000ms, 0882ms total)
T3B18 002:771 JLINK_ReadReg(R0)  returns 0x00000000 (0001ms, 0883ms total)
T3B18 002:834 JLINK_WriteMem(0x20000000, 0x0180 Bytes, ...) - Data: 00 BE 0A E0 0D 78 2D 06 68 40 08 24 40 00 00 D3 ... -- CPU_WriteMem(384 bytes @ 0x20000000)  returns 0x180 (0005ms, 0888ms total)
T3B18 002:839 JLINK_WriteReg(R0, 0x08000000)  returns 0x00 (0001ms, 0889ms total)
T3B18 002:840 JLINK_WriteReg(R1, 0x00B71B00)  returns 0x00 (0000ms, 0889ms total)
T3B18 002:840 JLINK_WriteReg(R2, 0x00000002)  returns 0x00 (0000ms, 0889ms total)
T3B18 002:840 JLINK_WriteReg(R3, 0x00000000)  returns 0x00 (0001ms, 0890ms total)
T3B18 002:841 JLINK_WriteReg(R4, 0x00000000)  returns 0x00 (0000ms, 0890ms total)
T3B18 002:841 JLINK_WriteReg(R5, 0x00000000)  returns 0x00 (0000ms, 0890ms total)
T3B18 002:841 JLINK_WriteReg(R6, 0x00000000)  returns 0x00 (0001ms, 0891ms total)
T3B18 002:842 JLINK_WriteReg(R7, 0x00000000)  returns 0x00 (0000ms, 0891ms total)
T3B18 002:842 JLINK_WriteReg(R8, 0x00000000)  returns 0x00 (0000ms, 0891ms total)
T3B18 002:842 JLINK_WriteReg(R9, 0x2000017C)  returns 0x00 (0001ms, 0892ms total)
T3B18 002:843 JLINK_WriteReg(R10, 0x00000000)  returns 0x00 (0000ms, 0892ms total)
T3B18 002:843 JLINK_WriteReg(R11, 0x00000000)  returns 0x00 (0000ms, 0892ms total)
T3B18 002:843 JLINK_WriteReg(R12, 0x00000000)  returns 0x00 (0001ms, 0893ms total)
T3B18 002:844 JLINK_WriteReg(R13 (SP), 0x20001000)  returns 0x00 (0000ms, 0893ms total)
T3B18 002:844 JLINK_WriteReg(R14, 0x20000001)  returns 0x00 (0000ms, 0893ms total)
T3B18 002:844 JLINK_WriteReg(R15 (PC), 0x20000054)  returns 0x00 (0001ms, 0894ms total)
T3B18 002:845 JLINK_WriteReg(XPSR, 0x01000000)  returns 0x00 (0000ms, 0894ms total)
T3B18 002:845 JLINK_WriteReg(MSP, 0x20001000)  returns 0x00 (0000ms, 0894ms total)
T3B18 002:845 JLINK_WriteReg(PSP, 0x20001000)  returns 0x00 (0001ms, 0895ms total)
T3B18 002:846 JLINK_WriteReg(CFBP, 0x00000000)  returns 0x00 (0000ms, 0895ms total)
T3B18 002:846 JLINK_SetBPEx(Addr = 0x20000000, Type = 0xFFFFFFF2) -- CPU_ReadMem(4 bytes @ 0x20000000) -- CPU_WriteMem(4 bytes @ 0x20000000) -- CPU_ReadMem(4 bytes @ 0x20000000) -- CPU_WriteMem(4 bytes @ 0x20000000) -- CPU_ReadMem(2 bytes @ 0x20000000)  returns 0x00000009 (0008ms, 0903ms total)
T3B18 002:855 JLINK_Go() -- CPU_WriteMem(2 bytes @ 0x20000000) (0004ms, 0907ms total)
T3B18 002:859 JLINK_IsHalted() -- CPU_ReadMem(2 bytes @ 0x20000000)  returns TRUE (0007ms, 0914ms total)
T3B18 002:866 JLINK_ReadReg(R15 (PC))  returns 0x20000000 (0000ms, 0907ms total)
T3B18 002:866 JLINK_ClrBPEx(BPHandle = 0x00000009)  returns 0x00 (0000ms, 0907ms total)
T3B18 002:866 JLINK_ReadReg(R0)  returns 0x00000000 (0001ms, 0908ms total)
T3B18 002:867 JLINK_WriteMem(0x20000180, 0x0400 Bytes, ...) - Data: 70 C1 00 20 AD 02 00 08 6F 45 00 08 9D 41 00 08 ... -- CPU_WriteMem(1024 bytes @ 0x20000180)  returns 0x400 (0012ms, 0920ms total)
T3B18 002:879 JLINK_WriteReg(R0, 0x08000000)  returns 0x00 (0000ms, 0920ms total)
T3B18 002:879 JLINK_WriteReg(R1, 0x00000400)  returns 0x00 (0001ms, 0921ms total)
T3B18 002:880 JLINK_WriteReg(R2, 0x20000180)  returns 0x00 (0000ms, 0921ms total)
T3B18 002:880 JLINK_WriteReg(R3, 0x00000000)  returns 0x00 (0000ms, 0921ms total)
T3B18 002:880 JLINK_WriteReg(R4, 0x00000000)  returns 0x00 (0001ms, 0922ms total)
T3B18 002:881 JLINK_WriteReg(R5, 0x00000000)  returns 0x00 (0000ms, 0922ms total)
T3B18 002:881 JLINK_WriteReg(R6, 0x00000000)  returns 0x00 (0000ms, 0922ms total)
T3B18 002:881 JLINK_WriteReg(R7, 0x00000000)  returns 0x00 (0001ms, 0923ms total)
T3B18 002:882 JLINK_WriteReg(R8, 0x00000000)  returns 0x00 (0000ms, 0923ms total)
T3B18 002:882 JLINK_WriteReg(R9, 0x2000017C)  returns 0x00 (0000ms, 0923ms total)
T3B18 002:882 JLINK_WriteReg(R10, 0x00000000)  returns 0x00 (0001ms, 0924ms total)
T3B18 002:883 JLINK_WriteReg(R11, 0x00000000)  returns 0x00 (0000ms, 0924ms total)
T3B18 002:883 JLINK_WriteReg(R12, 0x00000000)  returns 0x00 (0000ms, 0924ms total)
T3B18 002:883 JLINK_WriteReg(R13 (SP), 0x20001000)  returns 0x00 (0001ms, 0925ms total)
T3B18 002:884 JLINK_WriteReg(R14, 0x20000001)  returns 0x00 (0000ms, 0925ms total)
T3B18 002:884 JLINK_WriteReg(R15 (PC), 0x20000108)  returns 0x00 (0000ms, 0925ms total)
T3B18 002:884 JLINK_WriteReg(XPSR, 0x01000000)  returns 0x00 (0001ms, 0926ms total)
T3B18 002:885 JLINK_WriteReg(MSP, 0x20001000)  returns 0x00 (0000ms, 0926ms total)
T3B18 002:885 JLINK_WriteReg(PSP, 0x20001000)  returns 0x00 (0000ms, 0926ms total)
T3B18 002:885 JLINK_WriteReg(CFBP, 0x00000000)  returns 0x00 (0001ms, 0927ms total)
T3B18 002:886 JLINK_SetBPEx(Addr = 0x20000000, Type = 0xFFFFFFF2)  returns 0x0000000A (0000ms, 0927ms total)
T3B18 002:886 JLINK_Go() (0003ms, 0930ms total)
T3B18 002:889 JLINK_IsHalted()  returns FALSE (0002ms, 0932ms total)
T3B18 003:062 JLINK_IsHalted() -- CPU_ReadMem(2 bytes @ 0x20000000)  returns TRUE (0007ms, 0937ms total)
T3B18 003:069 JLINK_ReadReg(R15 (PC))  returns 0x20000000 (0001ms, 0931ms total)
T3B18 003:070 JLINK_ClrBPEx(BPHandle = 0x0000000A)  returns 0x00 (0000ms, 0931ms total)
T3B18 003:070 JLINK_ReadReg(R0)  returns 0x00000000 (0000ms, 0931ms total)
T3B18 003:071 JLINK_WriteMem(0x20000180, 0x0400 Bytes, ...) - Data: 02 E0 49 07 04 D5 11 A5 01 24 01 E0 AF F3 00 80 ... -- CPU_WriteMem(1024 bytes @ 0x20000180)  returns 0x400 (0012ms, 0943ms total)
T3B18 003:083 JLINK_WriteReg(R0, 0x08000400)  returns 0x00 (0000ms, 0943ms total)
T3B18 003:083 JLINK_WriteReg(R1, 0x00000400)  returns 0x00 (0001ms, 0944ms total)
T3B18 003:084 JLINK_WriteReg(R2, 0x20000180)  returns 0x00 (0000ms, 0944ms total)
T3B18 003:084 JLINK_WriteReg(R3, 0x00000000)  returns 0x00 (0000ms, 0944ms total)
T3B18 003:084 JLINK_WriteReg(R4, 0x00000000)  returns 0x00 (0000ms, 0944ms total)
T3B18 003:085 JLINK_WriteReg(R5, 0x00000000)  returns 0x00 (0000ms, 0945ms total)
T3B18 003:085 JLINK_WriteReg(R6, 0x00000000)  returns 0x00 (0000ms, 0945ms total)
T3B18 003:085 JLINK_WriteReg(R7, 0x00000000)  returns 0x00 (0000ms, 0945ms total)
T3B18 003:085 JLINK_WriteReg(R8, 0x00000000)  returns 0x00 (0001ms, 0946ms total)
T3B18 003:086 JLINK_WriteReg(R9, 0x2000017C)  returns 0x00 (0000ms, 0946ms total)
T3B18 003:086 JLINK_WriteReg(R10, 0x00000000)  returns 0x00 (0000ms, 0946ms total)
T3B18 003:086 JLINK_WriteReg(R11, 0x00000000)  returns 0x00 (0001ms, 0947ms total)
T3B18 003:087 JLINK_WriteReg(R12, 0x00000000)  returns 0x00 (0000ms, 0947ms total)
T3B18 003:087 JLINK_WriteReg(R13 (SP), 0x20001000)  returns 0x00 (0000ms, 0947ms total)
T3B18 003:087 JLINK_WriteReg(R14, 0x20000001)  returns 0x00 (0001ms, 0948ms total)
T3B18 003:088 JLINK_WriteReg(R15 (PC), 0x20000108)  returns 0x00 (0000ms, 0948ms total)
T3B18 003:088 JLINK_WriteReg(XPSR, 0x01000000)  returns 0x00 (0000ms, 0948ms total)
T3B18 003:088 JLINK_WriteReg(MSP, 0x20001000)  returns 0x00 (0000ms, 0948ms total)
T3B18 003:088 JLINK_WriteReg(PSP, 0x20001000)  returns 0x00 (0001ms, 0949ms total)
T3B18 003:089 JLINK_WriteReg(CFBP, 0x00000000)  returns 0x00 (0000ms, 0949ms total)
T3B18 003:089 JLINK_SetBPEx(Addr = 0x20000000, Type = 0xFFFFFFF2)  returns 0x0000000B (0000ms, 0949ms total)
T3B18 003:089 JLINK_Go() (0004ms, 0953ms total)
T3B18 003:093 JLINK_IsHalted()  returns FALSE (0002ms, 0955ms total)
T3B18 003:268 JLINK_IsHalted() -- CPU_ReadMem(2 bytes @ 0x20000000)  returns TRUE (0007ms, 0960ms total)
T3B18 003:275 JLINK_ReadReg(R15 (PC))  returns 0x20000000 (0000ms, 0953ms total)
T3B18 003:275 JLINK_ClrBPEx(BPHandle = 0x0000000B)  returns 0x00 (0000ms, 0953ms total)
T3B18 003:275 JLINK_ReadReg(R0)  returns 0x00000000 (0001ms, 0954ms total)
T3B18 003:277 JLINK_WriteMem(0x20000180, 0x0400 Bytes, ...) - Data: 18 FB 8D E8 07 00 00 04 00 0C 03 D0 4F F0 FF 30 ... -- CPU_WriteMem(1024 bytes @ 0x20000180)  returns 0x400 (0011ms, 0965ms total)
T3B18 003:288 JLINK_WriteReg(R0, 0x08000800)  returns 0x00 (0000ms, 0965ms total)
T3B18 003:289 JLINK_WriteReg(R1, 0x00000400)  returns 0x00 (0000ms, 0966ms total)
T3B18 003:289 JLINK_WriteReg(R2, 0x20000180)  returns 0x00 (0000ms, 0966ms total)
T3B18 003:289 JLINK_WriteReg(R3, 0x00000000)  returns 0x00 (0000ms, 0966ms total)
T3B18 003:290 JLINK_WriteReg(R4, 0x00000000)  returns 0x00 (0000ms, 0967ms total)
T3B18 003:290 JLINK_WriteReg(R5, 0x00000000)  returns 0x00 (0000ms, 0967ms total)
T3B18 003:290 JLINK_WriteReg(R6, 0x00000000)  returns 0x00 (0000ms, 0967ms total)
T3B18 003:291 JLINK_WriteReg(R7, 0x00000000)  returns 0x00 (0000ms, 0968ms total)
T3B18 003:291 JLINK_WriteReg(R8, 0x00000000)  returns 0x00 (0000ms, 0968ms total)
T3B18 003:291 JLINK_WriteReg(R9, 0x2000017C)  returns 0x00 (0000ms, 0968ms total)
T3B18 003:291 JLINK_WriteReg(R10, 0x00000000)  returns 0x00 (0001ms, 0969ms total)
T3B18 003:292 JLINK_WriteReg(R11, 0x00000000)  returns 0x00 (0000ms, 0969ms total)
T3B18 003:292 JLINK_WriteReg(R12, 0x00000000)  returns 0x00 (0000ms, 0969ms total)
T3B18 003:292 JLINK_WriteReg(R13 (SP), 0x20001000)  returns 0x00 (0001ms, 0970ms total)
T3B18 003:293 JLINK_WriteReg(R14, 0x20000001)  returns 0x00 (0000ms, 0970ms total)
T3B18 003:293 JLINK_WriteReg(R15 (PC), 0x20000108)  returns 0x00 (0000ms, 0970ms total)
T3B18 003:293 JLINK_WriteReg(XPSR, 0x01000000)  returns 0x00 (0001ms, 0971ms total)
T3B18 003:294 JLINK_WriteReg(MSP, 0x20001000)  returns 0x00 (0000ms, 0971ms total)
T3B18 003:294 JLINK_WriteReg(PSP, 0x20001000)  returns 0x00 (0000ms, 0971ms total)
T3B18 003:294 JLINK_WriteReg(CFBP, 0x00000000)  returns 0x00 (0001ms, 0972ms total)
T3B18 003:295 JLINK_SetBPEx(Addr = 0x20000000, Type = 0xFFFFFFF2)  returns 0x0000000C (0000ms, 0972ms total)
T3B18 003:295 JLINK_Go() (0003ms, 0975ms total)
T3B18 003:299 JLINK_IsHalted()  returns FALSE (0001ms, 0977ms total)
T3B18 003:490 JLINK_IsHalted() -- CPU_ReadMem(2 bytes @ 0x20000000)  returns TRUE (0006ms, 0982ms total)
T3B18 003:496 JLINK_ReadReg(R15 (PC))  returns 0x20000000 (0001ms, 0977ms total)
T3B18 003:497 JLINK_ClrBPEx(BPHandle = 0x0000000C)  returns 0x00 (0000ms, 0977ms total)
T3B18 003:497 JLINK_ReadReg(R0)  returns 0x00000000 (0000ms, 0977ms total)
T3B18 003:498 JLINK_WriteMem(0x20000180, 0x0400 Bytes, ...) - Data: FF 01 00 00 0F 01 00 00 00 48 70 47 30 BB 00 20 ... -- CPU_WriteMem(1024 bytes @ 0x20000180)  returns 0x400 (0011ms, 0988ms total)
T3B18 003:510 JLINK_WriteReg(R0, 0x08000C00)  returns 0x00 (0000ms, 0989ms total)
T3B18 003:510 JLINK_WriteReg(R1, 0x00000400)  returns 0x00 (0000ms, 0989ms total)
T3B18 003:510 JLINK_WriteReg(R2, 0x20000180)  returns 0x00 (0001ms, 0990ms total)
T3B18 003:511 JLINK_WriteReg(R3, 0x00000000)  returns 0x00 (0000ms, 0990ms total)
T3B18 003:511 JLINK_WriteReg(R4, 0x00000000)  returns 0x00 (0000ms, 0990ms total)
T3B18 003:511 JLINK_WriteReg(R5, 0x00000000)  returns 0x00 (0000ms, 0990ms total)
T3B18 003:512 JLINK_WriteReg(R6, 0x00000000)  returns 0x00 (0000ms, 0991ms total)
T3B18 003:512 JLINK_WriteReg(R7, 0x00000000)  returns 0x00 (0000ms, 0991ms total)
T3B18 003:512 JLINK_WriteReg(R8, 0x00000000)  returns 0x00 (0000ms, 0991ms total)
T3B18 003:513 JLINK_WriteReg(R9, 0x2000017C)  returns 0x00 (0000ms, 0992ms total)
T3B18 003:513 JLINK_WriteReg(R10, 0x00000000)  returns 0x00 (0000ms, 0992ms total)
T3B18 003:513 JLINK_WriteReg(R11, 0x00000000)  returns 0x00 (0000ms, 0992ms total)
T3B18 003:513 JLINK_WriteReg(R12, 0x00000000)  returns 0x00 (0001ms, 0993ms total)
T3B18 003:514 JLINK_WriteReg(R13 (SP), 0x20001000)  returns 0x00 (0000ms, 0993ms total)
T3B18 003:514 JLINK_WriteReg(R14, 0x20000001)  returns 0x00 (0000ms, 0993ms total)
T3B18 003:514 JLINK_WriteReg(R15 (PC), 0x20000108)  returns 0x00 (0001ms, 0994ms total)
T3B18 003:515 JLINK_WriteReg(XPSR, 0x01000000)  returns 0x00 (0000ms, 0994ms total)
T3B18 003:515 JLINK_WriteReg(MSP, 0x20001000)  returns 0x00 (0000ms, 0994ms total)
T3B18 003:515 JLINK_WriteReg(PSP, 0x20001000)  returns 0x00 (0001ms, 0995ms total)
T3B18 003:516 JLINK_WriteReg(CFBP, 0x00000000)  returns 0x00 (0000ms, 0995ms total)
T3B18 003:516 JLINK_SetBPEx(Addr = 0x20000000, Type = 0xFFFFFFF2)  returns 0x0000000D (0000ms, 0995ms total)
T3B18 003:517 JLINK_Go() (0003ms, 0999ms total)
T3B18 003:520 JLINK_IsHalted()  returns FALSE (0001ms, 1000ms total)
T3B18 003:695 JLINK_IsHalted() -- CPU_ReadMem(2 bytes @ 0x20000000)  returns TRUE (0007ms, 1006ms total)
T3B18 003:702 JLINK_ReadReg(R15 (PC))  returns 0x20000000 (0000ms, 0999ms total)
T3B18 003:702 JLINK_ClrBPEx(BPHandle = 0x0000000D)  returns 0x00 (0000ms, 0999ms total)
T3B18 003:702 JLINK_ReadReg(R0)  returns 0x00000000 (0001ms, 1000ms total)
T3B18 003:703 JLINK_WriteMem(0x20000180, 0x0400 Bytes, ...) - Data: 44 F2 3E 00 5B EA 04 01 00 90 58 46 04 D1 44 F2 ... -- CPU_WriteMem(1024 bytes @ 0x20000180)  returns 0x400 (0014ms, 1014ms total)
T3B18 003:717 JLINK_WriteReg(R0, 0x08001000)  returns 0x00 (0000ms, 1014ms total)
T3B18 003:717 JLINK_WriteReg(R1, 0x00000400)  returns 0x00 (0001ms, 1015ms total)
T3B18 003:718 JLINK_WriteReg(R2, 0x20000180)  returns 0x00 (0000ms, 1015ms total)
T3B18 003:718 JLINK_WriteReg(R3, 0x00000000)  returns 0x00 (0000ms, 1015ms total)
T3B18 003:718 JLINK_WriteReg(R4, 0x00000000)  returns 0x00 (0001ms, 1016ms total)
T3B18 003:719 JLINK_WriteReg(R5, 0x00000000)  returns 0x00 (0000ms, 1016ms total)
T3B18 003:719 JLINK_WriteReg(R6, 0x00000000)  returns 0x00 (0000ms, 1016ms total)
T3B18 003:719 JLINK_WriteReg(R7, 0x00000000)  returns 0x00 (0001ms, 1017ms total)
T3B18 003:720 JLINK_WriteReg(R8, 0x00000000)  returns 0x00 (0000ms, 1017ms total)
T3B18 003:720 JLINK_WriteReg(R9, 0x2000017C)  returns 0x00 (0000ms, 1017ms total)
T3B18 003:720 JLINK_WriteReg(R10, 0x00000000)  returns 0x00 (0001ms, 1018ms total)
T3B18 003:721 JLINK_WriteReg(R11, 0x00000000)  returns 0x00 (0000ms, 1018ms total)
T3B18 003:721 JLINK_WriteReg(R12, 0x00000000)  returns 0x00 (0000ms, 1018ms total)
T3B18 003:721 JLINK_WriteReg(R13 (SP), 0x20001000)  returns 0x00 (0000ms, 1018ms total)
T3B18 003:722 JLINK_WriteReg(R14, 0x20000001)  returns 0x00 (0000ms, 1019ms total)
T3B18 003:722 JLINK_WriteReg(R15 (PC), 0x20000108)  returns 0x00 (0000ms, 1019ms total)
T3B18 003:722 JLINK_WriteReg(XPSR, 0x01000000)  returns 0x00 (0000ms, 1019ms total)
T3B18 003:723 JLINK_WriteReg(MSP, 0x20001000)  returns 0x00 (0000ms, 1020ms total)
T3B18 003:723 JLINK_WriteReg(PSP, 0x20001000)  returns 0x00 (0000ms, 1020ms total)
T3B18 003:723 JLINK_WriteReg(CFBP, 0x00000000)  returns 0x00 (0001ms, 1021ms total)
T3B18 003:724 JLINK_SetBPEx(Addr = 0x20000000, Type = 0xFFFFFFF2)  returns 0x0000000E (0000ms, 1021ms total)
T3B18 003:724 JLINK_Go() (0003ms, 1024ms total)
T3B18 003:728 JLINK_IsHalted()  returns FALSE (0001ms, 1026ms total)
T3B18 003:904 JLINK_IsHalted() -- CPU_ReadMem(2 bytes @ 0x20000000)  returns TRUE (0006ms, 1031ms total)
T3B18 003:910 JLINK_ReadReg(R15 (PC))  returns 0x20000000 (0000ms, 1025ms total)
T3B18 003:911 JLINK_ClrBPEx(BPHandle = 0x0000000E)  returns 0x00 (0000ms, 1026ms total)
T3B18 003:911 JLINK_ReadReg(R0)  returns 0x00000000 (0000ms, 1026ms total)
T3B18 003:912 JLINK_WriteMem(0x20000180, 0x0400 Bytes, ...) - Data: CB 40 C1 F1 20 01 DB B2 C0 B2 C0 1A 2C FA 01 F3 ... -- CPU_WriteMem(1024 bytes @ 0x20000180)  returns 0x400 (0012ms, 1038ms total)
T3B18 003:924 JLINK_WriteReg(R0, 0x08001400)  returns 0x00 (0001ms, 1039ms total)
T3B18 003:925 JLINK_WriteReg(R1, 0x00000400)  returns 0x00 (0000ms, 1039ms total)
T3B18 003:925 JLINK_WriteReg(R2, 0x20000180)  returns 0x00 (0000ms, 1039ms total)
T3B18 003:925 JLINK_WriteReg(R3, 0x00000000)  returns 0x00 (0001ms, 1040ms total)
T3B18 003:926 JLINK_WriteReg(R4, 0x00000000)  returns 0x00 (0000ms, 1040ms total)
T3B18 003:926 JLINK_WriteReg(R5, 0x00000000)  returns 0x00 (0000ms, 1040ms total)
T3B18 003:926 JLINK_WriteReg(R6, 0x00000000)  returns 0x00 (0001ms, 1041ms total)
T3B18 003:927 JLINK_WriteReg(R7, 0x00000000)  returns 0x00 (0000ms, 1041ms total)
T3B18 003:927 JLINK_WriteReg(R8, 0x00000000)  returns 0x00 (0000ms, 1041ms total)
T3B18 003:927 JLINK_WriteReg(R9, 0x2000017C)  returns 0x00 (0001ms, 1042ms total)
T3B18 003:928 JLINK_WriteReg(R10, 0x00000000)  returns 0x00 (0000ms, 1042ms total)
T3B18 003:928 JLINK_WriteReg(R11, 0x00000000)  returns 0x00 (0000ms, 1042ms total)
T3B18 003:928 JLINK_WriteReg(R12, 0x00000000)  returns 0x00 (0001ms, 1043ms total)
T3B18 003:929 JLINK_WriteReg(R13 (SP), 0x20001000)  returns 0x00 (0000ms, 1043ms total)
T3B18 003:929 JLINK_WriteReg(R14, 0x20000001)  returns 0x00 (0000ms, 1043ms total)
T3B18 003:929 JLINK_WriteReg(R15 (PC), 0x20000108)  returns 0x00 (0001ms, 1044ms total)
T3B18 003:930 JLINK_WriteReg(XPSR, 0x01000000)  returns 0x00 (0000ms, 1044ms total)
T3B18 003:930 JLINK_WriteReg(MSP, 0x20001000)  returns 0x00 (0000ms, 1044ms total)
T3B18 003:930 JLINK_WriteReg(PSP, 0x20001000)  returns 0x00 (0001ms, 1045ms total)
T3B18 003:931 JLINK_WriteReg(CFBP, 0x00000000)  returns 0x00 (0000ms, 1045ms total)
T3B18 003:931 JLINK_SetBPEx(Addr = 0x20000000, Type = 0xFFFFFFF2)  returns 0x0000000F (0000ms, 1045ms total)
T3B18 003:931 JLINK_Go() (0004ms, 1049ms total)
T3B18 003:935 JLINK_IsHalted()  returns FALSE (0001ms, 1050ms total)
T3B18 004:109 JLINK_IsHalted() -- CPU_ReadMem(2 bytes @ 0x20000000)  returns TRUE (0007ms, 1056ms total)
T3B18 004:116 JLINK_ReadReg(R15 (PC))  returns 0x20000000 (0000ms, 1049ms total)
T3B18 004:116 JLINK_ClrBPEx(BPHandle = 0x0000000F)  returns 0x00 (0000ms, 1049ms total)
T3B18 004:116 JLINK_ReadReg(R0)  returns 0x00000000 (0001ms, 1050ms total)
T3B18 004:118 JLINK_WriteMem(0x20000180, 0x0400 Bytes, ...) - Data: E9 69 06 98 88 47 5F EA CB 70 12 D0 22 E0 A9 69 ... -- CPU_WriteMem(1024 bytes @ 0x20000180)  returns 0x400 (0011ms, 1061ms total)
T3B18 004:129 JLINK_WriteReg(R0, 0x08001800)  returns 0x00 (0001ms, 1062ms total)
T3B18 004:130 JLINK_WriteReg(R1, 0x00000400)  returns 0x00 (0000ms, 1062ms total)
T3B18 004:130 JLINK_WriteReg(R2, 0x20000180)  returns 0x00 (0000ms, 1062ms total)
T3B18 004:130 JLINK_WriteReg(R3, 0x00000000)  returns 0x00 (0001ms, 1063ms total)
T3B18 004:131 JLINK_WriteReg(R4, 0x00000000)  returns 0x00 (0000ms, 1063ms total)
T3B18 004:131 JLINK_WriteReg(R5, 0x00000000)  returns 0x00 (0000ms, 1063ms total)
T3B18 004:131 JLINK_WriteReg(R6, 0x00000000)  returns 0x00 (0001ms, 1064ms total)
T3B18 004:132 JLINK_WriteReg(R7, 0x00000000)  returns 0x00 (0000ms, 1064ms total)
T3B18 004:132 JLINK_WriteReg(R8, 0x00000000)  returns 0x00 (0000ms, 1064ms total)
T3B18 004:133 JLINK_WriteReg(R9, 0x2000017C)  returns 0x00 (0000ms, 1064ms total)
T3B18 004:133 JLINK_WriteReg(R10, 0x00000000)  returns 0x00 (0000ms, 1064ms total)
T3B18 004:133 JLINK_WriteReg(R11, 0x00000000)  returns 0x00 (0000ms, 1064ms total)
T3B18 004:134 JLINK_WriteReg(R12, 0x00000000)  returns 0x00 (0000ms, 1065ms total)
T3B18 004:134 JLINK_WriteReg(R13 (SP), 0x20001000)  returns 0x00 (0000ms, 1065ms total)
T3B18 004:134 JLINK_WriteReg(R14, 0x20000001)  returns 0x00 (0000ms, 1065ms total)
T3B18 004:135 JLINK_WriteReg(R15 (PC), 0x20000108)  returns 0x00 (0000ms, 1065ms total)
T3B18 004:135 JLINK_WriteReg(XPSR, 0x01000000)  returns 0x00 (0000ms, 1065ms total)
T3B18 004:135 JLINK_WriteReg(MSP, 0x20001000)  returns 0x00 (0000ms, 1065ms total)
T3B18 004:135 JLINK_WriteReg(PSP, 0x20001000)  returns 0x00 (0001ms, 1066ms total)
T3B18 004:136 JLINK_WriteReg(CFBP, 0x00000000)  returns 0x00 (0000ms, 1066ms total)
T3B18 004:136 JLINK_SetBPEx(Addr = 0x20000000, Type = 0xFFFFFFF2)  returns 0x00000010 (0000ms, 1066ms total)
T3B18 004:136 JLINK_Go() (0004ms, 1070ms total)
T3B18 004:140 JLINK_IsHalted()  returns FALSE (0001ms, 1071ms total)
T3B18 004:312 JLINK_IsHalted() -- CPU_ReadMem(2 bytes @ 0x20000000)  returns TRUE (0007ms, 1077ms total)
T3B18 004:319 JLINK_ReadReg(R15 (PC))  returns 0x20000000 (0000ms, 1070ms total)
T3B18 004:319 JLINK_ClrBPEx(BPHandle = 0x00000010)  returns 0x00 (0000ms, 1070ms total)
T3B18 004:319 JLINK_ReadReg(R0)  returns 0x00000000 (0001ms, 1071ms total)
T3B18 004:321 JLINK_WriteMem(0x20000180, 0x0400 Bytes, ...) - Data: 03 07 7B F1 00 0B 24 BF 62 46 39 46 4E EB 0E 0E ... -- CPU_WriteMem(1024 bytes @ 0x20000180)  returns 0x400 (0011ms, 1082ms total)
T3B18 004:332 JLINK_WriteReg(R0, 0x08001C00)  returns 0x00 (0001ms, 1083ms total)
T3B18 004:333 JLINK_WriteReg(R1, 0x00000400)  returns 0x00 (0000ms, 1083ms total)
T3B18 004:333 JLINK_WriteReg(R2, 0x20000180)  returns 0x00 (0000ms, 1083ms total)
T3B18 004:333 JLINK_WriteReg(R3, 0x00000000)  returns 0x00 (0001ms, 1084ms total)
T3B18 004:334 JLINK_WriteReg(R4, 0x00000000)  returns 0x00 (0000ms, 1084ms total)
T3B18 004:334 JLINK_WriteReg(R5, 0x00000000)  returns 0x00 (0000ms, 1084ms total)
T3B18 004:334 JLINK_WriteReg(R6, 0x00000000)  returns 0x00 (0000ms, 1084ms total)
T3B18 004:335 JLINK_WriteReg(R7, 0x00000000)  returns 0x00 (0000ms, 1085ms total)
T3B18 004:335 JLINK_WriteReg(R8, 0x00000000)  returns 0x00 (0000ms, 1085ms total)
T3B18 004:335 JLINK_WriteReg(R9, 0x2000017C)  returns 0x00 (0000ms, 1085ms total)
T3B18 004:336 JLINK_WriteReg(R10, 0x00000000)  returns 0x00 (0000ms, 1086ms total)
T3B18 004:336 JLINK_WriteReg(R11, 0x00000000)  returns 0x00 (0000ms, 1086ms total)
T3B18 004:336 JLINK_WriteReg(R12, 0x00000000)  returns 0x00 (0000ms, 1086ms total)
T3B18 004:336 JLINK_WriteReg(R13 (SP), 0x20001000)  returns 0x00 (0001ms, 1087ms total)
T3B18 004:337 JLINK_WriteReg(R14, 0x20000001)  returns 0x00 (0000ms, 1087ms total)
T3B18 004:337 JLINK_WriteReg(R15 (PC), 0x20000108)  returns 0x00 (0000ms, 1087ms total)
T3B18 004:337 JLINK_WriteReg(XPSR, 0x01000000)  returns 0x00 (0001ms, 1088ms total)
T3B18 004:338 JLINK_WriteReg(MSP, 0x20001000)  returns 0x00 (0000ms, 1088ms total)
T3B18 004:338 JLINK_WriteReg(PSP, 0x20001000)  returns 0x00 (0000ms, 1088ms total)
T3B18 004:338 JLINK_WriteReg(CFBP, 0x00000000)  returns 0x00 (0001ms, 1089ms total)
T3B18 004:339 JLINK_SetBPEx(Addr = 0x20000000, Type = 0xFFFFFFF2)  returns 0x00000011 (0000ms, 1089ms total)
T3B18 004:339 JLINK_Go() (0004ms, 1093ms total)
T3B18 004:343 JLINK_IsHalted()  returns FALSE (0001ms, 1094ms total)
T3B18 004:502 JLINK_IsHalted() -- CPU_ReadMem(2 bytes @ 0x20000000)  returns TRUE (0006ms, 1099ms total)
T3B18 004:508 JLINK_ReadReg(R15 (PC))  returns 0x20000000 (0001ms, 1094ms total)
T3B18 004:509 JLINK_ClrBPEx(BPHandle = 0x00000011)  returns 0x00 (0000ms, 1094ms total)
T3B18 004:509 JLINK_ReadReg(R0)  returns 0x00000000 (0000ms, 1094ms total)
T3B18 004:510 JLINK_WriteMem(0x20000180, 0x0400 Bytes, ...) - Data: 52 41 41 EB 01 01 A3 F1 01 03 70 47 95 F0 00 0F ... -- CPU_WriteMem(1024 bytes @ 0x20000180)  returns 0x400 (0011ms, 1105ms total)
